!{XTR-2001 Common Emitter Vce=15V   Ic=25mA  ghz s ma r 50}
# GHZ S MA R 50
!f       s11       s21           s12     s22
 .1  .57   -88  46.2  144  .008  58  .85  -20
 .2  .68  -124  32.5  123  .011  43  .67  -26
 .3  .72  -141  23.9  113  .013  37  .56  -26
 .4  .74  -150  18.7  106  .014  35  .51  -24
 .5  .75  -156  15.3  102  .014  35  .48  -22
 .6  .76  -160  12.9   99  .015  36  .46  -21
 .7  .76  -163  11.0   97  .015  37  .45  -20
 .8  .76  -165   9.8   95  .016  38  .44  -19
 .9  .76  -167   8.7   93  .016  40  .44  -18
1.0  .76  -168   7.9   91  .017  42  .44  -18
1.5  .77  -172   5.3   85  .021  49  .43  -18
2.0  .77  -175   4.0   81  .025  54  .43  -20
2.5  .77  -176   3.2   77  .029  58  .43  -23
3.0  .77  -177   2.7   73  .034  60  .43  -26
3.5  .77  -178   2.3   69  .038  61  .44  -29
4.0  .76  -179   2.0   66  .043  62  .44  -32
4.5  .76  -179   1.8   63  .048  62  .45  -35
5.0  .76  -179   1.6   59  .052  62  .45  -38
5.5  .76  -180   1.5   56  .057  62  .46  -41
6.0  .76  -180   1.4   53  .062  61  .47  -44
