!{XTR-2002}
# GHZ S MA R 50
!f	s11	     S21	S12	S22
0.1  .63   -58   33.4  149  .011  62  .88   -16
0.2  .63   -99   26.2  128  .016  49  .72   -25
0.3  .64  -122   20.3  115  .018  45  .61   -28
0.4  .64  -136   16.2  107  .021  42  .54   -29
0.5  .64  -146   13.4  101  .023  42  .50   -31
0.6  .64  -153   11.5   96  .024  43  .48   -32
0.7  .64  -158    9.9   92  .025  43  .47   -33
0.8  .64  -162    8.8   88  .026  45  .47   -34
0.9  .64  -166    7.8   85  .027  44  .48   -34
1.0  .64  -170    7.0   83  .029  46  .47   -35
1.5  .66   179    4.7   70  .035  49  .44   -40
2.0  .65   172    3.6   60  .044  53  .46   -50
2.5  .67   165    2.9   50  .052  55  .47   -59
3.0  .64   161    2.4   40  .061  57  .52   -66
3.5  .72   156    2.1   32  .068  53  .51   -79
4.0  .69   149    1.8   22  .074  48  .56   -85
4.5  .70   141    1.7   14  .081  44  .55   -92
5.0  .72   136    1.5    6  .086  39  .58  -101
5.5  .70   128    1.3   -3  .092  34  .62  -109
6.0  .75   122    1.2  -11  .098  30  .63  -118
6.5  .70   119    1.1  -20  .105  26  .70  -127
